
**** 12/30/20 14:31:08 ******* PSpice Lite (March 2016) ******* ID# 10813 ****

 ** Profile: "SCHEMATIC1-testb"  [ C:\Users\abdog\Desktop\4\cb-PSpiceFiles\SCHEMATIC1\testb.sim ] 


 ****     CIRCUIT DESCRIPTION


******************************************************************************




** Creating circuit file "testb.cir" 
** WARNING: THIS AUTOMATICALLY GENERATED FILE MAY BE OVERWRITTEN BY SUBSEQUENT SIMULATIONS

*Libraries: 
* Profile Libraries :
* Local Libraries :
* From [PSPICE NETLIST] section of C:\Users\abdog\AppData\Roaming\SPB_Data\cdssetup\OrCAD_PSpice\17.2.0\PSpice.ini file:
.lib "nomd.lib" 

*Analysis directives: 
.TRAN  0 1us 0 
.OPTIONS ADVCONV
.PROBE64 V(alias(*)) I(alias(*)) W(alias(*)) D(alias(*)) NOISE(alias(*)) 
.INC "..\SCHEMATIC1.net" 



**** INCLUDING SCHEMATIC1.net ****
* source CB
R_R1         N14488 N143090  100 TC=0,0 
R_R2         N143251 N14724  2.2k TC=0,0 
R_R3         0 N14813  51k TC=0,0 
R_R4         N143571 N14501  4.3k TC=0,0 
C_C1         N143090 N14501  1u  TC=0,0 
C_C2         N14724 N14813  1u  TC=0,0 
V_V1         N143251 0 5Vdc
V_V2         N143571 0 -5Vdc
V_V3         N14488 0  AC 10
+SIN 5 10 10 0 0 0
Q_Q2         N14724 0 N14501 Q2N2222

**** RESUMING testb.cir ****
.END

**** 12/30/20 14:31:08 ******* PSpice Lite (March 2016) ******* ID# 10813 ****

 ** Profile: "SCHEMATIC1-testb"  [ C:\Users\abdog\Desktop\4\cb-PSpiceFiles\SCHEMATIC1\testb.sim ] 


 ****     BJT MODEL PARAMETERS


******************************************************************************




               Q2N2222         
               NPN             
       LEVEL    1            
          IS   14.340000E-15 
          BF  255.9          
          NF    1            
         VAF   74.03         
         IKF     .2847       
         ISE   14.340000E-15 
          NE    1.307        
          BR    6.092        
          NR    1            
         ISS    0            
          RB   10            
          RE    0            
          RC    1            
         CJE   22.010000E-12 
         VJE     .75         
         MJE     .377        
         CJC    7.306000E-12 
         VJC     .75         
         MJC     .3416       
        XCJC    1            
         CJS    0            
         VJS     .75         
          TF  411.100000E-12 
         XTF    3            
         VTF    1.7          
         ITF     .6          
          TR   46.910000E-09 
         XTB    1.5          
          KF    0            
          AF    1            
          CN    2.42         
           D     .87         


**** 12/30/20 14:31:08 ******* PSpice Lite (March 2016) ******* ID# 10813 ****

 ** Profile: "SCHEMATIC1-testb"  [ C:\Users\abdog\Desktop\4\cb-PSpiceFiles\SCHEMATIC1\testb.sim ] 


 ****     INITIAL TRANSIENT SOLUTION       TEMPERATURE =   27.000 DEG C


******************************************************************************



 NODE   VOLTAGE     NODE   VOLTAGE     NODE   VOLTAGE     NODE   VOLTAGE


(N14488)    5.0000 (N14501)    -.6451 (N14724)    2.7864 (N14813)    0.0000     

(N143090)    5.0000                   (N143251)    5.0000                       

(N143571)   -5.0000                   




    VOLTAGE SOURCE CURRENTS
    NAME         CURRENT

    V_V1        -1.006E-03
    V_V2         1.013E-03
    V_V3         0.000E+00

    TOTAL POWER DISSIPATION   1.01E-02  WATTS



          JOB CONCLUDED

**** 12/30/20 14:31:08 ******* PSpice Lite (March 2016) ******* ID# 10813 ****

 ** Profile: "SCHEMATIC1-testb"  [ C:\Users\abdog\Desktop\4\cb-PSpiceFiles\SCHEMATIC1\testb.sim ] 


 ****     JOB STATISTICS SUMMARY


******************************************************************************



  Total job time (using Solver 1)   =         .03
