
**** 12/30/20 22:53:41 ******* PSpice Lite (March 2016) ******* ID# 10813 ****

 ** Profile: "SCHEMATIC1-testtty"  [ c:\users\abdog\desktop\1\ali-PSpiceFiles\SCHEMATIC1\testtty.sim ] 


 ****     CIRCUIT DESCRIPTION


******************************************************************************




** Creating circuit file "testtty.cir" 
** WARNING: THIS AUTOMATICALLY GENERATED FILE MAY BE OVERWRITTEN BY SUBSEQUENT SIMULATIONS

*Libraries: 
* Profile Libraries :
* Local Libraries :
* From [PSPICE NETLIST] section of C:\Users\abdog\AppData\Roaming\SPB_Data\cdssetup\OrCAD_PSpice\17.2.0\PSpice.ini file:
.lib "nomd.lib" 

*Analysis directives: 
.AC DEC 10 10 10meg
.OPTIONS ADVCONV
.PROBE64 V(alias(*)) I(alias(*)) W(alias(*)) D(alias(*)) NOISE(alias(*)) 
.INC "..\SCHEMATIC1.net" 



**** INCLUDING SCHEMATIC1.net ****
* source ALI
R_R1         N00075 N00109  2000  
R_R2         0 N00109  20k  
Q_Q1         N00817 N07291 N00539 Q2N2222
Q_Q2         N00817 0 N00109 Q2N2222
V_VEE         N00109 0 0Vdc
V_-VCC         N00539 0 -5Vdc
C_C3         0 N00539  1m  
R_R4         N00817 N01049  22k  
V_+VCC         N01049 0 5Vdc
C_C4         N00817 N01164  1u  
R_R5         0 N01164  18k  
V_V1         N00075 0  AC 0
+SIN 7 10m 100 0 0 0
R_R6         N00109 N07291  98k  

**** RESUMING testtty.cir ****
.END

**** 12/30/20 22:53:41 ******* PSpice Lite (March 2016) ******* ID# 10813 ****

 ** Profile: "SCHEMATIC1-testtty"  [ c:\users\abdog\desktop\1\ali-PSpiceFiles\SCHEMATIC1\testtty.sim ] 


 ****     BJT MODEL PARAMETERS


******************************************************************************




               Q2N2222         
               NPN             
       LEVEL    1            
          IS   14.340000E-15 
          BF  255.9          
          NF    1            
         VAF   74.03         
         IKF     .2847       
         ISE   14.340000E-15 
          NE    1.307        
          BR    6.092        
          NR    1            
         ISS    0            
          RB   10            
          RE    0            
          RC    1            
         CJE   22.010000E-12 
         VJE     .75         
         MJE     .377        
         CJC    7.306000E-12 
         VJC     .75         
         MJC     .3416       
        XCJC    1            
         CJS    0            
         VJS     .75         
          TF  411.100000E-12 
         XTF    3            
         VTF    1.7          
         ITF     .6          
          TR   46.910000E-09 
         XTB    1.5          
          KF    0            
          AF    1            
          CN    2.42         
           D     .87         


**** 12/30/20 22:53:41 ******* PSpice Lite (March 2016) ******* ID# 10813 ****

 ** Profile: "SCHEMATIC1-testtty"  [ c:\users\abdog\desktop\1\ali-PSpiceFiles\SCHEMATIC1\testtty.sim ] 


 ****     SMALL SIGNAL BIAS SOLUTION       TEMPERATURE =   27.000 DEG C


******************************************************************************



 NODE   VOLTAGE     NODE   VOLTAGE     NODE   VOLTAGE     NODE   VOLTAGE


(N00075)    7.0000 (N00109)    0.0000 (N00539)   -5.0000 (N00817)    -.7132     

(N01049)    5.0000 (N01164)    0.0000 (N07291)   -4.3008 




    VOLTAGE SOURCE CURRENTS
    NAME         CURRENT

    V_VEE       -3.112E-03
    V_-VCC       7.960E-03
    V_+VCC      -2.597E-04
    V_V1        -3.500E-03

    TOTAL POWER DISSIPATION   6.56E-02  WATTS


WARNING(ORPSIM-15193): No AC sources -- AC Sweep ignored


          JOB CONCLUDED

**** 12/30/20 22:53:41 ******* PSpice Lite (March 2016) ******* ID# 10813 ****

 ** Profile: "SCHEMATIC1-testtty"  [ c:\users\abdog\desktop\1\ali-PSpiceFiles\SCHEMATIC1\testtty.sim ] 


 ****     JOB STATISTICS SUMMARY


******************************************************************************



  Total job time (using Solver 1)   =         .05
