
**** 12/28/20 14:59:15 ******* PSpice Lite (March 2016) ******* ID# 10813 ****

 ** Profile: "SCHEMATIC1-test1"  [ C:\USERS\ABDOG\DESKTOP\ALI-PSpiceFiles\SCHEMATIC1\test1.sim ] 


 ****     CIRCUIT DESCRIPTION


******************************************************************************




** Creating circuit file "test1.cir" 
** WARNING: THIS AUTOMATICALLY GENERATED FILE MAY BE OVERWRITTEN BY SUBSEQUENT SIMULATIONS

*Libraries: 
* Profile Libraries :
* Local Libraries :
* From [PSPICE NETLIST] section of C:\Users\abdog\AppData\Roaming\SPB_Data\cdssetup\OrCAD_PSpice\17.2.0\PSpice.ini file:
.lib "nomd.lib" 

*Analysis directives: 
.TRAN  0 100s 0 
.OPTIONS ADVCONV
.PROBE64 V(alias(*)) I(alias(*)) W(alias(*)) D(alias(*)) NOISE(alias(*)) 
.INC "..\SCHEMATIC1.net" 



**** INCLUDING SCHEMATIC1.net ****
* source ALI
V_V1         N00075 0 DC 0Vdc AC 15Vac 
R_R1         N00075 N00109  0.1k  
C_C1         N00109 N00182  1u  
R_R2         0 N00182  2k  
Q_Q1         N00817 N00182 N00539 Q2N2222
Q_Q2         N00817 0 N00182 Q2N2222
R_R3         N003221 N00182  4.3k  
V_VEE         N003221 0 0Vdc
V_-VCC         N00539 0 -5Vdc
C_C3         0 N00539  1u  
R_R4         N00817 N01049  2.2k  
V_+VCC         N01049 0 5Vdc
C_C4         N00817 N01164  1u  
R_R5         0 N01164  1k  

**** RESUMING test1.cir ****
.END

**** 12/28/20 14:59:15 ******* PSpice Lite (March 2016) ******* ID# 10813 ****

 ** Profile: "SCHEMATIC1-test1"  [ C:\USERS\ABDOG\DESKTOP\ALI-PSpiceFiles\SCHEMATIC1\test1.sim ] 


 ****     BJT MODEL PARAMETERS


******************************************************************************




               Q2N2222         
               NPN             
       LEVEL    1            
          IS   14.340000E-15 
          BF  255.9          
          NF    1            
         VAF   74.03         
         IKF     .2847       
         ISE   14.340000E-15 
          NE    1.307        
          BR    6.092        
          NR    1            
         ISS    0            
          RB   10            
          RE    0            
          RC    1            
         CJE   22.010000E-12 
         VJE     .75         
         MJE     .377        
         CJC    7.306000E-12 
         VJC     .75         
         MJC     .3416       
        XCJC    1            
         CJS    0            
         VJS     .75         
          TF  411.100000E-12 
         XTF    3            
         VTF    1.7          
         ITF     .6          
          TR   46.910000E-09 
         XTB    1.5          
          KF    0            
          AF    1            
          CN    2.42         
           D     .87         


**** 12/28/20 14:59:15 ******* PSpice Lite (March 2016) ******* ID# 10813 ****

 ** Profile: "SCHEMATIC1-test1"  [ C:\USERS\ABDOG\DESKTOP\ALI-PSpiceFiles\SCHEMATIC1\test1.sim ] 


 ****     INITIAL TRANSIENT SOLUTION       TEMPERATURE =   27.000 DEG C


******************************************************************************



 NODE   VOLTAGE     NODE   VOLTAGE     NODE   VOLTAGE     NODE   VOLTAGE


(N00075)    0.0000 (N00109)    0.0000 (N00182)   -4.1491 (N00539)   -5.0000     

(N00817)   -4.4798 (N01049)    5.0000 (N01164)    0.0000 (N003221)    0.0000    




    VOLTAGE SOURCE CURRENTS
    NAME         CURRENT

    V_V1         0.000E+00
    V_VEE       -9.649E-04
    V_-VCC       3.381E-01
    V_+VCC      -4.309E-03

    TOTAL POWER DISSIPATION   1.71E+00  WATTS



          JOB CONCLUDED

**** 12/28/20 14:59:15 ******* PSpice Lite (March 2016) ******* ID# 10813 ****

 ** Profile: "SCHEMATIC1-test1"  [ C:\USERS\ABDOG\DESKTOP\ALI-PSpiceFiles\SCHEMATIC1\test1.sim ] 


 ****     JOB STATISTICS SUMMARY


******************************************************************************



  Total job time (using Solver 1)   =         .13
